!Keysight Technologies,N5242A,MY56022913,Z.10.56.49
!Date: Friday, September 08, 2017 16:47:48
!Correction: S11(Full 2 Port(1,2)) 
!S21(Full 2 Port(1,2)) 
!S12(Full 2 Port(1,2)) 
!S22(Full 2 Port(1,2)) 
!S2P File: Measurements: S11, S21, S12, S22:
# Hz S  MA   R 50
10000000 0.0082992576 55.014523 0.99626625 -13.513535 0.99694848 -13.538281 0.013641478 37.733376
23245000 0.0083760517 37.189388 0.99498075 -30.684072 0.99428439 -30.686354 0.010302556 23.768604
36490000 0.013635481 23.097603 0.99382865 -48.107521 0.99387008 -48.079033 0.014149682 14.908541
49735000 0.015218869 9.0529842 0.99239689 -65.451035 0.9930194 -65.423141 0.014830058 -2.4461799
62980000 0.015487928 -6.6100216 0.99202853 -82.823196 0.99204838 -82.795242 0.015191031 -14.156943
76225000 0.014884487 -26.718521 0.99122405 -100.16416 0.99162877 -100.13251 0.014127353 -34.414608
89470000 0.012149691 -44.113026 0.99016505 -117.55876 0.99050784 -117.52097 0.012092109 -47.952808
102715000 0.010280213 -63.548122 0.98984468 -134.90594 0.99023372 -134.85837 0.0091092121 -63.354111
115960000 0.0064251861 -82.870232 0.98914748 -152.23428 0.98934466 -152.22215 0.0053459229 -79.834671
129205000 0.002770541 -117.51521 0.98874289 -169.58365 0.98886728 -169.56447 0.0014936622 -67.319
142450000 0.0022740294 92.418861 0.98757899 173.07898 0.98797452 173.0645 0.0029116606 46.648247
155695000 0.006809257 62.340462 0.98694116 155.75142 0.98754025 155.77504 0.0064582005 33.86034
168940000 0.0096239429 43.30846 0.98655123 138.40923 0.98728114 138.42395 0.0092456052 25.959593
182185000 0.013370341 26.44873 0.98650295 121.07487 0.98581189 121.06177 0.011838526 12.655994
195430000 0.015035641 7.4775467 0.98572409 103.71658 0.98570246 103.74257 0.013566007 -1.5818326
208675000 0.016367087 -10.380095 0.98494428 86.387642 0.98504114 86.411018 0.013884478 -13.467479
221920000 0.015343267 -28.779186 0.98368979 69.093872 0.98549098 69.059822 0.01498501 -29.511124
235165000 0.014310636 -45.084545 0.98423582 51.695602 0.98421574 51.751591 0.013220609 -40.259125
248410000 0.012863972 -68.341438 0.98424083 34.365067 0.98400015 34.405624 0.010696074 -49.255791
261655000 0.0085009662 -83.155769 0.98387194 17.094881 0.98298204 17.154255 0.0082080346 -60.787598
274900000 0.0055246148 -120.12079 0.98267812 -0.22879614 0.98365164 -0.28483498 0.0058568879 -60.941067
288145000 0.0022636133 -168.2364 0.98301762 -17.607056 0.98243433 -17.578176 0.0046661352 -32.509869
301390000 0.0031115809 78.807816 0.98150992 -34.912189 0.98240191 -34.947372 0.0057329554 0.7458843
314635000 0.0066130948 49.627876 0.98200041 -52.187183 0.98169076 -52.251228 0.006913282 -4.9044557
327880000 0.01008027 27.187723 0.98170406 -69.593643 0.98171562 -69.584732 0.0093906196 -11.7536
341125000 0.011286495 7.8122144 0.98083842 -86.919609 0.98107123 -86.897202 0.010780979 -14.965877
354370000 0.011133576 -8.3056116 0.97972423 -104.27349 0.98126042 -104.26225 0.011003354 -35.935959
367615000 0.011980567 -28.173126 0.98064363 -121.59045 0.98004252 -121.5683 0.010709595 -47.161537
380860000 0.008611802 -44.510582 0.97909838 -138.88409 0.98036981 -138.91273 0.0088634044 -60.213917
394105000 0.0059296503 -61.688099 0.97956282 -156.17671 0.9803983 -156.24297 0.0059059346 -73.24749
407350000 0.0025405774 -86.099319 0.97964603 -173.52986 0.97985178 -173.52504 0.0031370451 -92.040428
420595000 0.00061482558 64.208344 0.97880971 169.13455 0.97980469 169.17404 0.00088779849 -47.307709
433840000 0.0034596131 61.911903 0.97887659 151.78009 0.97848386 151.77797 0.0034424884 26.480553
447085000 0.0075017698 48.102146 0.97800326 134.45758 0.97762245 134.47316 0.0070620906 18.9547
460330000 0.0097572105 34.853279 0.9786244 117.16053 0.9781068 117.16277 0.009280893 7.9463558
473575000 0.012716611 15.696533 0.97623086 99.857239 0.97876424 99.848183 0.010401961 -10.573298
486820000 0.013949276 -7.1027532 0.97703743 82.465904 0.97700953 82.441391 0.012456516 -17.239639
500065000 0.014952014 -24.074545 0.97730774 65.161789 0.97752118 65.224976 0.012051076 -29.587173
513310000 0.014600691 -39.464981 0.97736734 47.85828 0.97723353 47.851795 0.012456631 -44.864376
526555000 0.013310185 -59.674782 0.97631812 30.545614 0.97620231 30.51745 0.010856851 -58.053322
539800000 0.011708666 -81.238945 0.97537005 13.226106 0.97622204 13.179124 0.010059408 -61.411972
553045000 0.0079985159 -107.80038 0.97579217 -4.1124792 0.97668236 -4.0812449 0.0093462644 -67.423538
566290000 0.0057670651 -150.71172 0.9755826 -21.494654 0.97619325 -21.456936 0.0067381086 -69.387505
579535000 0.0035188589 142.63268 0.97518051 -38.735714 0.97492599 -38.80085 0.0076528508 -48.988518
592780000 0.0056062024 88.309021 0.97562265 -56.137226 0.97524649 -56.105225 0.0078885201 -31.409241
606025000 0.0078179594 52.482235 0.97496724 -73.455742 0.97440809 -73.4161 0.010208188 -31.262243
619270000 0.012685952 23.315887 0.97567326 -90.742455 0.97379959 -90.786598 0.011642976 -40.843723
632515000 0.013011392 7.0038419 0.97411186 -108.10416 0.97386122 -108.08779 0.012581932 -55.182503
645760000 0.011868157 -9.8501663 0.97399753 -125.3875 0.9738543 -125.36875 0.011980483 -59.320858
659005000 0.01296725 -31.473362 0.97321296 -142.72737 0.9733755 -142.71097 0.011187536 -74.120773
672250000 0.010984656 -47.202003 0.97307843 -160.05176 0.97328675 -160.03613 0.010786504 -82.404358
685495000 0.0083898231 -61.573711 0.97250682 -177.41217 0.97330743 -177.37843 0.0072035622 -86.387619
698740000 0.0038148509 -76.214989 0.97313941 165.27481 0.9734937 165.27489 0.0046764314 -105.30218
711985000 0.00074675964 -49.22142 0.97245187 147.97028 0.97287565 147.96796 0.0028002935 -15.524302
725230000 0.0024070207 32.349846 0.97234088 130.63745 0.9727717 130.68436 0.0030758351 -28.869253
738475000 0.0065991078 31.872156 0.97175992 113.32562 0.97182745 113.29897 0.0054740668 -15.500504
751720000 0.0081297411 19.727865 0.97136575 96.042404 0.97101563 96.017815 0.0074969297 -16.561726
764965000 0.011498106 5.5326939 0.97062469 78.74646 0.97152722 78.697662 0.0093886219 -31.587917
778210000 0.012424 -9.076395 0.97148502 61.34729 0.97127086 61.381226 0.011098098 -48.794533
791455000 0.013438204 -25.966869 0.97068858 44.075043 0.97184545 44.047619 0.011302818 -56.834244
804700000 0.011534208 -44.043228 0.97050893 26.70739 0.97108406 26.716589 0.0088588744 -66.261208
817945000 0.0097019766 -61.730377 0.9699319 9.4271412 0.97051644 9.4295778 0.0086699473 -84.710434
831190000 0.0069915215 -76.864418 0.96992993 -7.8778214 0.97074836 -7.9589181 0.0077031925 -85.05545
844435000 0.0054531898 -96.332527 0.97030103 -25.240576 0.96942884 -25.217203 0.0051796967 -83.662949
857680000 0.001379939 -144.18961 0.96926904 -42.553391 0.96964371 -42.518707 0.0041297991 -67.71418
870925000 0.0039209211 87.471039 0.96972466 -59.911331 0.9694407 -59.863262 0.0056705154 -63.293316
884170000 0.0059834421 48.645321 0.968925 -77.194031 0.96898341 -77.178581 0.0070671351 -60.308018
897415000 0.008865972 35.400143 0.96853602 -94.460449 0.96920311 -94.546249 0.00738825 -49.602272
910660000 0.011425063 13.14672 0.96828586 -111.8297 0.96904564 -111.80479 0.0094187614 -65.717186
923905000 0.011596664 -6.141017 0.96791953 -129.1228 0.96842688 -129.16151 0.011750097 -72.915947
937150000 0.011652318 -18.469759 0.96853077 -146.46745 0.96806669 -146.44644 0.011039044 -78.521133
950395000 0.011580061 -38.399475 0.96797377 -163.79013 0.96754867 -163.78455 0.0097753005 -89.496315
963640000 0.011448936 -50.209877 0.96860582 178.92459 0.96808475 178.8894 0.0077616163 -115.66241
976885000 0.0073072407 -54.793953 0.96752548 161.63133 0.96818733 161.52792 0.0057104435 -123.25944
990130000 0.0050264415 -55.370808 0.9682436 144.2262 0.96699101 144.25806 0.0026397586 -124.17879
1003375000 0.0049490747 -33.858337 0.96811426 127.00095 0.96672034 126.93961 0.0014710333 -10.674947
1016620000 0.0042384835 -4.7640486 0.9666633 109.57009 0.96783531 109.625 0.0037220132 1.2491786
1029865000 0.0063017677 -2.965152 0.96590132 92.299309 0.96727329 92.300087 0.0053875591 -1.2572608
1043110000 0.0082206493 -9.2110624 0.96689731 75.012077 0.96717685 74.974663 0.0085067954 -17.229647
1056355000 0.010333572 -21.298971 0.9665125 57.650799 0.96741623 57.681274 0.010306384 -35.542175
1069600000 0.010976369 -32.749428 0.9665575 40.322151 0.96650273 40.320919 0.00927951 -50.548584
1082845000 0.011589941 -39.752861 0.9660185 23.063581 0.96593082 22.957756 0.011029577 -65.391083
1096090000 0.010504952 -58.33976 0.96573454 5.6918287 0.96653974 5.7028885 0.0098055908 -79.997276
1109335000 0.0073339371 -68.500847 0.96637452 -11.625689 0.96537942 -11.700801 0.0079459613 -93.290115
1122580000 0.0059058354 -72.684845 0.96527481 -28.958353 0.96549696 -28.915173 0.0066320025 -102.69422
1135825000 0.0024084062 -68.11985 0.96556681 -46.281902 0.96573794 -46.283012 0.0035885724 -107.42345
1149070000 0.0013039837 -24.213194 0.96515936 -63.594711 0.96424997 -63.622196 0.0024667035 -64.097382
1162315000 0.0031457487 12.050555 0.96484232 -80.913765 0.96466839 -80.884003 0.0039474452 -44.923954
1175560000 0.0068571381 0.17497902 0.96351004 -98.265465 0.96520185 -98.254494 0.0058769677 -53.05257
1188805000 0.0094312904 -0.10648134 0.96476197 -115.56862 0.96431279 -115.54145 0.0072832396 -45.87817
1202050000 0.010758101 -18.018345 0.96508735 -132.86284 0.96363306 -132.86215 0.0092891492 -56.181671
1215295000 0.013473568 -36.638958 0.96387833 -150.20227 0.96419764 -150.18175 0.0090610245 -70.333923
1228540000 0.012025252 -52.491596 0.96412182 -167.52678 0.96316361 -167.50627 0.010790979 -86.704025
1241785000 0.011967389 -55.171295 0.96419126 175.19432 0.9638167 175.17419 0.0096496521 -101.76971
1255030000 0.009063473 -72.609764 0.96295464 157.8687 0.96428883 157.82675 0.0079088761 -103.34538
1268275000 0.0072101648 -73.248528 0.96331567 140.53543 0.96383703 140.49905 0.0046545956 -119.44754
1281520000 0.0056218961 -69.914658 0.96299458 123.21957 0.96298718 123.21388 0.0011356376 -139.49754
1294765000 0.0071029649 -46.778656 0.96232337 105.87948 0.96379268 105.91206 0.0027492729 18.576567
1308010000 0.0079311803 -26.230082 0.96339685 88.558571 0.96310693 88.568756 0.0078214854 14.087248
1321255000 0.011607375 -38.063316 0.96213973 71.234085 0.96247309 71.263329 0.010691019 -1.2806352
1334500000 0.013477996 -51.178574 0.96188283 53.939117 0.96243787 53.967503 0.012728976 -17.989491
1347745000 0.014977363 -69.143387 0.96163231 36.621998 0.96206534 36.618866 0.015200603 -29.433277
1360990000 0.014636499 -82.814728 0.96135557 19.338568 0.96299309 19.286819 0.016409878 -40.385586
1374235000 0.013047957 -96.67411 0.96122527 1.9787856 0.96228009 1.9743136 0.015782356 -52.102486
1387480000 0.011775902 -118.18179 0.96130466 -15.33064 0.96176404 -15.348627 0.014433028 -68.847984
1400725000 0.0078381114 -134.4973 0.96127969 -32.617054 0.96127874 -32.691849 0.01214644 -68.763245
1413970000 0.006255425 -159.00029 0.96173084 -49.968967 0.96068335 -49.99881 0.0099033043 -77.556747
1427215000 0.0030602582 136.59818 0.9603973 -67.288589 0.96085131 -67.230476 0.0092165275 -73.131912
1440460000 0.0053726695 52.980953 0.96063662 -84.596085 0.96044981 -84.600014 0.0091603491 -60.346722
1453705000 0.0090885973 23.275927 0.96094143 -101.90352 0.96050638 -101.89954 0.010138027 -56.647449
1466950000 0.011761666 -5.7552161 0.96003354 -119.25941 0.96040076 -119.22215 0.01241259 -58.366535
1480195000 0.014168561 -26.710375 0.95973814 -136.53415 0.96071023 -136.52574 0.013579011 -66.296951
1493440000 0.016869098 -44.250904 0.95985997 -153.84973 0.96026772 -153.90079 0.01551685 -73.385101
1506685000 0.017385948 -60.937481 0.96009207 -171.14146 0.95984614 -171.15027 0.016986592 -84.358276
1519930000 0.018162364 -77.66497 0.95901126 171.46866 0.95916706 171.52184 0.01757166 -95.673172
1533175000 0.018184263 -104.40593 0.95960379 154.18874 0.95907825 154.20816 0.016041672 -106.34097
1546420000 0.015500644 -119.02924 0.95875394 136.80661 0.95898777 136.86041 0.015478555 -119.91711
1559665000 0.012036703 -138.2093 0.958628 119.59187 0.95891613 119.52055 0.012403225 -128.45033
1572910000 0.009378056 -151.70284 0.95845342 102.26625 0.9586187 102.19313 0.009857567 -140.36609
1586155000 0.0047506518 -169.35291 0.95827591 84.930389 0.95922172 84.9216 0.003941766 -136.89009
1599400000 0.0016261671 -90.738495 0.95818311 67.582047 0.95876777 67.618187 0.0022465922 -94.702583
1612645000 0.0029498697 -79.852768 0.95758587 50.268196 0.95974505 50.262646 0.0044564591 -34.759079
1625890000 0.0078503601 -66.981323 0.95719099 32.930492 0.95837384 32.923172 0.0089255478 -36.435799
1639135000 0.010462351 -84.414658 0.95694149 15.69559 0.95776051 15.678477 0.012044812 -57.338402
1652380000 0.012377378 -100.69035 0.9576478 -1.6722116 0.95825332 -1.6876771 0.013835604 -60.664875
1665625000 0.012582071 -126.58482 0.95701355 -19.005795 0.95815903 -18.972446 0.014211355 -65.21347
1678870000 0.0099127451 -140.84851 0.95679981 -36.26046 0.95708549 -36.366913 0.015779948 -79.607697
1692115000 0.0086174458 -165.79182 0.95606792 -53.629524 0.95754862 -53.662426 0.013274602 -87.132095
1705360000 0.0058572027 168.37411 0.95675862 -70.921295 0.95692492 -70.940857 0.011956967 -94.354233
1718605000 0.0039788825 110.06847 0.95562446 -88.248657 0.95715821 -88.25573 0.0093234302 -90.653984
1731850000 0.0041176709 20.415636 0.95661563 -105.56691 0.956653 -105.54375 0.0092580589 -86.116463
1745095000 0.0062775305 -8.9041519 0.95635295 -122.85297 0.95615315 -122.89215 0.0094981315 -68.590057
1758340000 0.012089268 -26.600643 0.9565596 -140.22133 0.95664197 -140.13217 0.01283241 -73.733101
1771585000 0.012777612 -53.966728 0.95510119 -157.49371 0.95607722 -157.55241 0.01451579 -73.819305
1784830000 0.01550839 -72.534836 0.95518148 -174.87167 0.95566499 -174.85197 0.014903815 -85.380043
1798075000 0.016178073 -93.620415 0.95543063 167.85828 0.95601875 167.82945 0.016596084 -94.183838
1811320000 0.016420089 -109.80966 0.95535284 150.54187 0.95495498 150.51657 0.017375818 -109.25409
1824565000 0.017019583 -127.69596 0.95546138 133.19124 0.9558149 133.18407 0.016016806 -123.58777
1837810000 0.013344449 -145.75629 0.95465189 115.86573 0.95491588 115.88632 0.014158376 -135.09158
1851055000 0.011732573 -164.73708 0.95510381 98.568733 0.95537835 98.598389 0.012774652 -141.49046
1864300000 0.0064388262 -176.5287 0.95447791 81.25132 0.95545888 81.279045 0.0094405664 -140.19925
1877545000 0.0035557852 157.35939 0.95542461 63.978657 0.95496941 63.935463 0.005662261 -143.73531
1890790000 0.0013170945 -102.02051 0.95469522 46.617344 0.95524222 46.655739 0.0045712045 -93.361832
1904035000 0.0066112359 -68.054169 0.95447409 29.300133 0.95424408 29.279646 0.0073889899 -81.574432
1917280000 0.0097088534 -86.281982 0.95400417 11.991802 0.95375192 11.996243 0.011930294 -71.757088
1930525000 0.012386447 -104.73909 0.95468831 -5.3327789 0.9532488 -5.3028359 0.015671551 -78.187263
1943770000 0.014970726 -121.1608 0.95431578 -22.628725 0.95462304 -22.651249 0.015594819 -89.44545
1957015000 0.01477976 -140.6646 0.95455945 -39.922539 0.95435101 -39.935532 0.018223638 -100.95249
1970260000 0.013336129 -160.47325 0.9534983 -57.270138 0.95340544 -57.288994 0.018289516 -106.89008
1983505000 0.011067209 175.52086 0.95342773 -74.634865 0.95294201 -74.564369 0.014203005 -112.75842
1996750000 0.0071984367 151.33502 0.9540028 -91.875 0.95335853 -91.968056 0.011413801 -117.68118
2009995000 0.0041645989 107.85587 0.95259005 -109.16672 0.95316106 -109.22451 0.0097659128 -109.81573
2023240000 0.0034307684 29.401676 0.95343232 -126.55886 0.95377493 -126.54794 0.0093725547 -90.526329
2036485000 0.006729621 -27.863108 0.95213157 -143.86681 0.95345634 -143.8465 0.010293174 -86.331024
2049730000 0.011163908 -50.231525 0.95204288 -161.11041 0.95312661 -161.15242 0.013064565 -86.246201
2062975000 0.015000923 -79.421814 0.95206231 -178.50301 0.95297438 -178.41515 0.017239038 -91.66478
2076220000 0.017077506 -97.242157 0.95318437 164.19223 0.95257688 164.1891 0.01829309 -104.74345
2089465000 0.019314535 -113.72597 0.95179409 146.79561 0.95177877 146.91454 0.020180712 -112.43639
2102710000 0.019702619 -136.63814 0.95172596 129.55482 0.95262969 129.58806 0.01990534 -129.4948
2115955000 0.01905168 -153.2925 0.95141107 112.26125 0.95094168 112.3207 0.017574809 -150.56517
2129200000 0.015491443 -166.01201 0.95108974 94.93605 0.95199162 94.926689 0.01739314 -160.57275
2142445000 0.014301318 172.62561 0.95142317 77.587929 0.95112759 77.644508 0.013546412 -178.54214
2155690000 0.0098050181 157.53539 0.95147353 60.246769 0.95170081 60.349468 0.0089738863 169.65564
2168935000 0.0044157333 150.3672 0.95164412 42.986031 0.95070493 43.013931 0.0036973413 173.09782
2182180000 0.0015073025 -114.24087 0.95095992 25.657629 0.95240718 25.690887 0.0019692362 -97.961891
2195425000 0.0047087152 -91.220413 0.95042557 8.3629055 0.95116097 8.3777733 0.0058182478 -68.092819
2208670000 0.0087509966 -117.84722 0.95107472 -8.8967352 0.95172185 -8.9511528 0.010470208 -86.354179
2221915000 0.012622503 -130.23479 0.95100498 -26.236885 0.95084262 -26.293196 0.015672477 -98.000786
2235160000 0.014840486 -148.32672 0.9502238 -43.556408 0.95088708 -43.613663 0.01950682 -112.06781
2248405000 0.01731186 -167.55907 0.95071667 -60.895592 0.95089775 -60.856461 0.019750101 -123.51341
2261650000 0.014519045 170.96989 0.94976705 -78.197166 0.95145786 -78.199875 0.018491372 -131.02892
2274895000 0.012870729 145.09575 0.94965953 -95.510826 0.95004803 -95.532967 0.016636556 -139.87788
2288140000 0.0098641571 117.25544 0.94965416 -112.88413 0.95044953 -112.80949 0.013685038 -147.20888
2301385000 0.0064796107 67.183189 0.95023048 -130.138 0.95016319 -130.1183 0.011678816 -133.71364
2314630000 0.0067985784 1.5739856 0.94924003 -147.47032 0.95056874 -147.5034 0.010123738 -111.56608
2327875000 0.010434354 -50.389076 0.94929808 -164.80627 0.94981736 -164.77443 0.01457456 -98.265083
2341120000 0.017179934 -79.769028 0.94883114 177.86932 0.95012558 177.89307 0.018771233 -100.1212
2354365000 0.021022083 -103.28641 0.9482379 160.60815 0.95023906 160.59482 0.02322649 -108.86342
2367610000 0.023316804 -124.2479 0.94984186 143.27454 0.94914532 143.2527 0.026539698 -123.14336
2380855000 0.025551435 -140.87984 0.94881862 125.95625 0.94955522 125.98135 0.027047627 -136.90015
2394100000 0.024454173 -159.78447 0.94878179 108.6309 0.94907665 108.66054 0.027312865 -151.67668
2407345000 0.023684235 179.99777 0.94782597 91.340393 0.95002681 91.310638 0.024457082 -167.43791
2420590000 0.021677604 161.92618 0.94802868 73.994804 0.94900012 74.022507 0.021229466 177.2411
2433835000 0.015731467 135.40996 0.94811964 56.721054 0.94850039 56.674713 0.018069999 164.34114
2447080000 0.01246304 114.15676 0.94782031 39.415756 0.94880992 39.420471 0.011496658 144.17955
2460325000 0.0073992712 94.760208 0.94785273 22.012331 0.94848269 22.122866 0.0065394277 133.63484
2473570000 0.0033473137 32.669277 0.94781864 4.7116609 0.94873393 4.8012991 0.0022810916 -173.59711
2486815000 0.00405611 -72.801941 0.9477399 -12.55561 0.94776046 -12.535998 0.0057022115 -127.89149
2500060000 0.0090651009 -93.8032 0.94717801 -29.929981 0.948542 -29.852087 0.011413377 -128.90845
2513305000 0.012818182 -117.49714 0.94794554 -47.223602 0.94766563 -47.196365 0.01456554 -140.43568
2526550000 0.016047133 -139.13118 0.947052 -64.499435 0.94826877 -64.51696 0.016844206 -157.36156
2539795000 0.015722971 -157.68147 0.94653744 -81.837845 0.94735038 -81.767975 0.017617654 -174.10426
2553040000 0.016614454 -179.46909 0.94758594 -99.166206 0.94703424 -99.108551 0.017280227 168.11209
2566285000 0.013414504 165.13356 0.94644791 -116.39233 0.94668406 -116.50455 0.013869407 153.96408
2579530000 0.0081525119 152.30145 0.94628441 -133.77245 0.94745731 -133.72595 0.008342932 124.74651
2592775000 0.0041608908 143.41962 0.94722688 -151.06575 0.94665134 -151.03922 0.0023761047 113.99392
2606020000 0.0024844569 -106.90917 0.94649452 -168.34912 0.94652265 -168.39656 0.0061673815 -45.139111
2619265000 0.0090989051 -104.33366 0.94599777 174.32782 0.94727623 174.27815 0.011797385 -86.798508
