!Keysight Technologies,N5242A,MY56022913,Z.10.56.49
!Date: Friday, September 08, 2017 17:25:54
!Correction: S11(Full 2 Port(1,2)) 
!S21(Full 2 Port(1,2)) 
!S12(Full 2 Port(1,2)) 
!S22(Full 2 Port(1,2)) 
!S2P File: Measurements: S11, S21, S12, S22:
# Hz S  MA   R 50
14000000000 0.027175762 125.82367 0.84609902 55.52821 0.84651452 55.319214 0.037004139 32.797344
14004000000 0.03220953 119.54855 0.84740353 50.270618 0.84589458 50.016304 0.034635507 38.776466
14008000000 0.036570553 113.58916 0.84696734 45.096233 0.84576511 44.837437 0.032742918 42.678413
14012000000 0.040574089 106.00304 0.84436458 39.871731 0.84561056 39.624294 0.032923609 52.649616
14016000000 0.045493629 99.090897 0.8448928 34.587154 0.84583837 34.353134 0.034820136 59.508926
14020000000 0.048629284 93.520851 0.84525043 29.398104 0.84613812 29.118271 0.036595277 62.424515
14024000000 0.051520392 86.662956 0.84508771 24.159586 0.84489673 23.82688 0.039439615 67.162941
14028000000 0.054756697 80.333763 0.84531468 18.887529 0.84484541 18.620914 0.043130103 70.705788
14032000000 0.057275217 73.895592 0.8434577 13.655103 0.84496206 13.356918 0.046717897 70.512047
14036000000 0.059323896 68.378464 0.84342355 8.5016298 0.84330118 8.220314 0.050731774 72.570267
14040000000 0.059928875 61.948055 0.84382719 3.2160487 0.84440655 2.9472108 0.054042693 71.133774
14044000000 0.061515171 55.630611 0.84470904 -2.0482175 0.84460235 -2.2650113 0.05789293 68.965195
14048000000 0.061966717 49.387314 0.84526819 -7.2191124 0.84327555 -7.4806881 0.06157618 68.227661
14052000000 0.061883073 43.576775 0.84452611 -12.410294 0.84382045 -12.690313 0.064543135 66.860207
14056000000 0.060252782 36.682068 0.84408891 -17.640194 0.84294832 -17.905838 0.067836665 63.996128
14060000000 0.058706108 31.544701 0.84359783 -22.828049 0.84337038 -23.15654 0.070420541 62.280739
14064000000 0.057276417 24.990396 0.84369439 -28.086758 0.84391391 -28.406809 0.070688017 59.484718
14068000000 0.05533497 18.15295 0.84430736 -33.345734 0.84484231 -33.601955 0.073612712 56.482918
14072000000 0.051513508 11.827592 0.84322822 -38.550598 0.84413064 -38.802761 0.074604146 54.027447
14076000000 0.049152944 4.6253352 0.8446641 -43.734962 0.84378707 -44.084557 0.074682832 51.221306
14080000000 0.045921441 -2.3000011 0.84390765 -48.941853 0.84388465 -49.270115 0.075476468 49.021984
14084000000 0.041957945 -10.549554 0.84374696 -54.178074 0.84393656 -54.511982 0.07427302 46.389694
14088000000 0.037699319 -19.463766 0.84447968 -59.468765 0.84397697 -59.806519 0.07332287 44.069
14092000000 0.033913575 -28.49608 0.84508735 -64.662682 0.84415227 -64.983162 0.071503885 42.241692
14096000000 0.028598735 -40.969757 0.84414375 -69.955017 0.84421945 -70.204659 0.070333503 38.563793
14100000000 0.025657373 -53.889511 0.84514928 -75.19989 0.84474552 -75.448387 0.067785501 38.041691
14104000000 0.02076683 -68.98764 0.84408134 -80.344177 0.84472764 -80.693855 0.065564379 36.956558
14108000000 0.017603233 -88.831062 0.84299713 -85.639656 0.84388822 -85.921188 0.062333882 36.409725
14112000000 0.017018594 -115.38081 0.84398019 -90.919556 0.84312844 -91.154152 0.060577203 35.031506
14116000000 0.017420918 -142.69958 0.84422743 -96.143471 0.84399825 -96.394325 0.056957554 34.742767
14120000000 0.020171629 -165.2097 0.84404886 -101.34411 0.84563845 -101.6669 0.053169966 37.013016
14124000000 0.02431925 179.74359 0.84323657 -106.58419 0.84291583 -106.87753 0.050181735 37.21133
14128000000 0.02746346 165.0302 0.84362406 -111.88253 0.84398609 -112.1499 0.048428677 40.116287
14132000000 0.033474721 154.34843 0.8428933 -117.05399 0.84336066 -117.40198 0.045726314 44.058971
14136000000 0.039286692 144.58055 0.8431986 -122.3743 0.84405422 -122.57876 0.043702208 48.418201
14140000000 0.044223201 136.15749 0.84217107 -127.63338 0.84253156 -127.82175 0.04395289 53.001732
14144000000 0.048508566 126.63649 0.84356469 -132.81218 0.84327018 -133.11124 0.044224452 58.093845
14148000000 0.054998305 119.56075 0.84267086 -138.04823 0.84326935 -138.29456 0.045344595 62.236317
14152000000 0.058878936 112.60487 0.84262669 -143.2572 0.84186137 -143.5274 0.048374139 67.074745
14156000000 0.062167283 105.22678 0.84230489 -148.53212 0.84228355 -148.78036 0.051420365 69.837807
14160000000 0.065633208 97.254745 0.8422901 -153.74243 0.84107715 -154.03125 0.055107079 71.609886
14164000000 0.068982743 90.194855 0.8402819 -158.97362 0.84199476 -159.252 0.058762059 73.296295
14168000000 0.071383938 84.299622 0.84172261 -164.21906 0.84093642 -164.47977 0.063377611 73.729897
14172000000 0.073346637 77.856079 0.83992946 -169.46001 0.84048927 -169.6754 0.067225099 74.125336
14176000000 0.075321771 70.579422 0.84091622 -174.58559 0.84035486 -174.89558 0.071482494 72.756073
14180000000 0.076923855 64.215981 0.84004122 -179.85104 0.83960354 179.91083 0.07500115 72.287148
14184000000 0.076610096 57.168827 0.84044999 174.92816 0.839625 174.66353 0.079476751 70.859184
14188000000 0.077246651 51.842159 0.83960187 169.7056 0.83958715 169.5141 0.084547766 70.29493
14192000000 0.07679826 44.887375 0.83889979 164.4776 0.83990401 164.21777 0.086674705 67.337845
14196000000 0.077147029 36.841751 0.83994019 159.24498 0.83875769 159.02017 0.089030579 65.458359
14200000000 0.074543193 31.589523 0.83958888 154.0063 0.84026825 153.81924 0.092251062 63.37426
14204000000 0.071467303 24.534809 0.83956647 148.85402 0.83960325 148.55791 0.093445361 61.445892
14208000000 0.070633344 16.925591 0.84001517 143.62703 0.84059566 143.43221 0.096298508 59.057415
14212000000 0.067712389 9.5743732 0.83871305 138.40622 0.83925289 138.1192 0.095739476 56.613747
14216000000 0.064342827 3.568454 0.84074801 133.19926 0.83966666 132.9059 0.095012248 54.419567
14220000000 0.059747927 -3.9276261 0.8391763 127.98346 0.83958077 127.68518 0.096390426 52.413094
14224000000 0.05519937 -11.778744 0.83863109 122.70805 0.83905375 122.47834 0.095296189 49.902939
14228000000 0.050379049 -19.855484 0.83955598 117.47794 0.8403697 117.19677 0.094461478 48.035141
14232000000 0.047230583 -29.987461 0.83963275 112.27478 0.84041637 112.03767 0.093300767 45.815834
14236000000 0.043085873 -38.608009 0.84031224 107.06117 0.84045702 106.84914 0.091346517 43.943794
14240000000 0.037142612 -49.302261 0.83987385 101.85133 0.84067613 101.59543 0.089088924 42.076756
14244000000 0.032687236 -60.235672 0.83958095 96.621971 0.83870918 96.411606 0.086631559 39.871265
14248000000 0.028245509 -76.506126 0.83925349 91.328979 0.84032202 91.117752 0.082912631 39.909412
14252000000 0.02607609 -93.496414 0.83969194 86.125877 0.84203851 85.893616 0.079150312 38.2696
14256000000 0.023384694 -117.10252 0.84010226 80.867172 0.84000063 80.57 0.075521447 38.566525
14260000000 0.023580043 -139.2204 0.84058964 75.614784 0.8407042 75.318848 0.071194664 38.027992
14264000000 0.024303818 -159.75793 0.84101719 70.397247 0.84008628 70.063828 0.068987884 40.213646
14268000000 0.027445486 -178.25844 0.83978683 65.118362 0.84034348 64.830719 0.065993614 41.259266
14272000000 0.031527519 166.84024 0.84027874 59.923374 0.8397373 59.62236 0.064099737 43.341003
14276000000 0.035969298 154.30676 0.84041405 54.639874 0.83965665 54.406841 0.061748393 44.663227
14280000000 0.040168557 143.495 0.84073049 49.421547 0.84093934 49.129524 0.060555235 48.121117
14284000000 0.044511989 132.36324 0.84038568 44.220726 0.83871162 43.933929 0.059431072 50.536419
14288000000 0.049495436 123.39896 0.83991092 38.937164 0.83920324 38.679626 0.06007101 54.134487
14292000000 0.052446686 115.22202 0.83887398 33.749462 0.83889413 33.440903 0.060966939 57.19849
14296000000 0.057176743 107.63924 0.84072548 28.47327 0.83862978 28.220173 0.063649707 59.137112
14300000000 0.061351292 99.954872 0.83802587 23.217569 0.83859307 22.977505 0.066471912 61.098278
14304000000 0.06470672 92.604881 0.83836937 17.982445 0.83900344 17.757429 0.068383068 62.162468
14308000000 0.067606285 86.158051 0.83797818 12.843882 0.83886534 12.501575 0.071204089 62.591282
14312000000 0.070214197 78.858963 0.83736318 7.5791936 0.83753222 7.3314996 0.075300254 63.18515
14316000000 0.070177265 72.377571 0.83730006 2.3219976 0.83716959 2.121002 0.07810156 62.622208
14320000000 0.072491713 65.651299 0.83799559 -2.8380375 0.8382268 -3.1702592 0.082061745 62.42474
14324000000 0.072859116 59.559338 0.83818322 -8.0673866 0.83749098 -8.3520823 0.08364632 61.181114
14328000000 0.072806261 53.043678 0.83716792 -13.237544 0.83829647 -13.634411 0.088620521 59.816059
14332000000 0.072079852 47.322247 0.83664298 -18.492285 0.83778965 -18.732758 0.092055969 57.709312
14336000000 0.071354546 40.389107 0.83689517 -23.715694 0.83705205 -23.984304 0.093118325 55.854458
14340000000 0.068641968 34.7631 0.83626509 -28.919319 0.83645838 -29.160862 0.09578076 54.019871
14344000000 0.067971915 28.223877 0.83704925 -34.153255 0.83732611 -34.414768 0.097042106 51.96138
14348000000 0.066430338 21.548567 0.83711511 -39.373356 0.83788776 -39.629005 0.099335231 49.581497
14352000000 0.061989058 14.946778 0.83699065 -44.603859 0.83701307 -44.879692 0.099099122 46.909248
14356000000 0.059035182 8.472249 0.837107 -49.779945 0.83683163 -50.096958 0.099597216 44.686909
14360000000 0.054855682 1.8373814 0.83730149 -54.995789 0.83680075 -55.295872 0.099695735 42.113487
14364000000 0.05068649 -4.74295 0.8362695 -60.220585 0.83688068 -60.492622 0.098642796 39.856522
14368000000 0.045964859 -13.236526 0.83709478 -65.481766 0.83774114 -65.740013 0.096034236 37.196716
14372000000 0.040361971 -19.753613 0.83853287 -70.735016 0.83667284 -70.978539 0.094262697 35.932922
14376000000 0.03437452 -29.140572 0.83805305 -75.981049 0.8369956 -76.256508 0.092027113 33.520905
14380000000 0.029139111 -35.946533 0.83948714 -81.102142 0.8367945 -81.451103 0.089794174 30.800741
14384000000 0.023551367 -47.426525 0.83811629 -86.366402 0.83714288 -86.726585 0.086466998 29.71063
14388000000 0.018662546 -59.96357 0.83709157 -91.619064 0.83688331 -91.938011 0.083038688 28.835369
14392000000 0.014192443 -78.65625 0.83765435 -96.866325 0.83696008 -97.169434 0.079461202 27.348547
14396000000 0.010566807 -112.51423 0.83756644 -102.12893 0.83720857 -102.36012 0.076938994 25.839836
14400000000 0.010260629 -149.35451 0.83699208 -107.33644 0.837933 -107.58263 0.074274682 25.76189
14404000000 0.01379321 -175.94119 0.83640295 -112.54791 0.83757323 -112.85053 0.06934651 26.05209
14408000000 0.017592423 161.32315 0.83713758 -117.81071 0.83754343 -118.07169 0.06628938 27.747658
14412000000 0.023194226 143.40466 0.83681273 -123.06131 0.83771199 -123.37907 0.06271828 28.181307
14416000000 0.028001729 135.43904 0.83667392 -128.26508 0.8375814 -128.59447 0.060853716 30.687607
14420000000 0.033351496 125.94981 0.83695912 -133.53949 0.83601856 -133.80688 0.058287941 33.496948
14424000000 0.038351659 118.25176 0.83673567 -138.75111 0.83725476 -139.00699 0.058473658 35.665077
14428000000 0.042644039 110.66523 0.83632743 -143.95888 0.83586913 -144.2742 0.058142729 40.008213
14432000000 0.047096867 103.9808 0.83675939 -149.27505 0.83608919 -149.46698 0.058909722 42.709927
14436000000 0.050328381 98.409088 0.83625174 -154.44315 0.83543736 -154.70036 0.060711373 45.173286
14440000000 0.053887907 90.986649 0.83570099 -159.66841 0.83508754 -159.97058 0.062245082 48.078896
14444000000 0.056287624 84.667923 0.83496481 -164.9156 0.83551168 -165.17964 0.06594342 50.283558
14448000000 0.05929755 79.303329 0.83534408 -170.16489 0.83529097 -170.37782 0.068739027 50.221394
14452000000 0.060845215 72.500488 0.83448559 -175.32991 0.83464867 -175.5945 0.070784874 51.446457
14456000000 0.061740484 66.764336 0.83416402 179.4185 0.83551091 179.1566 0.074668251 51.417332
14460000000 0.063039497 61.048771 0.83423895 174.20821 0.83376783 173.92598 0.078272007 50.844597
14464000000 0.06361147 55.966042 0.83473283 169.01608 0.83429283 168.6761 0.081354044 50.346806
14468000000 0.063020527 49.400063 0.83513683 163.7541 0.83267611 163.45361 0.085575014 49.171509
14472000000 0.062102493 44.142693 0.83385712 158.56596 0.83369017 158.24002 0.08833129 47.756035
14476000000 0.06077512 38.100079 0.83483404 153.33937 0.83318824 153.03479 0.091061674 45.956116
14480000000 0.059087396 32.731789 0.83369219 148.15742 0.83369279 147.80548 0.094610684 44.529057
14484000000 0.057481956 27.081673 0.83426952 142.84067 0.83470368 142.63309 0.095797256 42.222698
14488000000 0.054935105 20.678036 0.83427596 137.66151 0.83351535 137.37761 0.098277748 40.219944
14492000000 0.051720716 15.929806 0.83431286 132.43358 0.83363259 132.15709 0.099227488 37.438988
14496000000 0.048264593 9.6193733 0.83422655 127.1952 0.83395267 126.94922 0.098717578 35.670227
14500000000 0.043696094 3.7059581 0.83421999 121.98077 0.83416945 121.73572 0.099043205 33.374081
14504000000 0.040290151 -1.9004261 0.83498347 116.76345 0.83459485 116.53322 0.098888524 31.198494
14508000000 0.036158469 -6.9708657 0.83384913 111.52484 0.83494353 111.29915 0.098332986 28.178061
14512000000 0.031085758 -12.863325 0.83388847 106.3053 0.83401173 106.01457 0.09618818 26.32608
14516000000 0.026622014 -18.374161 0.83465821 101.09428 0.83389097 100.81816 0.09478581 24.863003
14520000000 0.0210054 -21.558535 0.83402342 95.81424 0.83380902 95.543121 0.09286245 22.665806
14524000000 0.016036795 -29.425882 0.83471972 90.615166 0.8336482 90.367256 0.089869194 20.764103
14528000000 0.011082201 -31.077381 0.83396387 85.401924 0.83322102 85.09388 0.087554015 19.298622
14532000000 0.0053263912 -36.777473 0.83386868 80.125877 0.8331911 79.844963 0.083128281 17.758005
14536000000 0.0016924738 81.735466 0.83430785 74.883545 0.83319354 74.632935 0.079929523 17.356319
14540000000 0.0058623427 123.00985 0.83372682 69.650879 0.83378178 69.434708 0.076531909 15.812689
14544000000 0.01104733 115.93307 0.83294278 64.382645 0.83372855 64.168365 0.072555177 15.455267
14548000000 0.01516562 113.49277 0.83288115 59.183346 0.83289111 58.917576 0.06924963 16.119791
14552000000 0.02164932 105.16966 0.8334955 53.917839 0.83300602 53.658745 0.065389879 17.039082
14556000000 0.025476372 102.31812 0.83388913 48.66053 0.83352208 48.420029 0.060906045 19.372072
14560000000 0.02924853 94.469658 0.83271587 43.492939 0.83216518 43.219097 0.05892935 20.14131
14564000000 0.034162551 90.156754 0.83278906 38.256508 0.83354384 37.981403 0.056627586 23.253151
14568000000 0.036169432 83.730408 0.83185935 33.001591 0.83245516 32.736057 0.054739673 25.820528
14572000000 0.039777268 78.595261 0.83233815 27.882341 0.83244348 27.51112 0.051378042 28.01716
14576000000 0.043024462 72.633522 0.83206099 22.547594 0.83230048 22.307138 0.05236499 33.013538
14580000000 0.04490209 65.937599 0.83199364 17.290096 0.83199966 17.080473 0.052942328 35.963142
14584000000 0.046152167 60.971653 0.83156854 12.125794 0.83082902 11.817703 0.054658316 38.434219
14588000000 0.049139634 54.244995 0.83063453 6.8576059 0.83093452 6.5795193 0.055850752 40.846573
14592000000 0.05012532 48.402824 0.83153194 1.6586058 0.83081037 1.352337 0.057579815 44.010082
14596000000 0.048854746 42.634773 0.8315298 -3.575351 0.83031404 -3.8800943 0.060448978 45.200455
14600000000 0.050219413 35.350723 0.83057749 -8.8670025 0.82966918 -9.0747271 0.061904944 45.798664
14604000000 0.048768751 29.96888 0.83010882 -14.028545 0.83165181 -14.251556 0.064799219 45.869473
14608000000 0.04744019 23.814734 0.82938033 -19.264969 0.83164853 -19.549995 0.067120783 46.053795
14612000000 0.045875657 16.173424 0.8300851 -24.475998 0.83079332 -24.75548 0.069530427 45.471832
14616000000 0.043334529 8.7871943 0.83055478 -29.690634 0.82938474 -29.954052 0.07109227 45.251232
14620000000 0.040531471 2.156553 0.82930058 -34.931484 0.83098227 -35.197636 0.072377376 43.89854
14624000000 0.038064059 -6.0914369 0.82986963 -40.16169 0.82991952 -40.432728 0.072208725 42.273548
14628000000 0.033934895 -13.693639 0.83121604 -45.330318 0.8303566 -45.648178 0.074079573 40.621868
14632000000 0.031043103 -21.205893 0.83062911 -50.57391 0.8302229 -50.896408 0.073681749 38.662411
14636000000 0.026141744 -33.012878 0.83051938 -55.834412 0.83084506 -56.124916 0.074093632 37.26667
14640000000 0.021941554 -41.815258 0.83025753 -61.052521 0.83113515 -61.332619 0.073635288 35.329113
14644000000 0.018805301 -58.959862 0.82992291 -66.299866 0.82995427 -66.576561 0.071813054 34.327793
14648000000 0.01517087 -80.480804 0.83020836 -71.505104 0.82970995 -71.819359 0.070049472 31.84757
14652000000 0.014009699 -109.08938 0.83083618 -76.784615 0.83060598 -77.00602 0.06861221 30.356131
14656000000 0.012672011 -135.69713 0.83043355 -81.956078 0.83052093 -82.249344 0.066990614 29.062698
14660000000 0.016286237 -166.62085 0.82987821 -87.226028 0.82975894 -87.479446 0.064330257 28.594173
14664000000 0.021051964 176.03026 0.83043438 -92.48674 0.82993311 -92.741638 0.061130904 27.397768
14668000000 0.025144834 160.08443 0.8298955 -97.687126 0.82909292 -97.937668 0.057553735 27.655327
14672000000 0.030475091 149.48221 0.82964379 -102.94843 0.82938361 -103.21928 0.054290105 28.464426
14676000000 0.035340369 140.01631 0.8290748 -108.13282 0.83025396 -108.43382 0.052177817 28.664232
14680000000 0.040575709 130.64375 0.8293559 -113.42489 0.82823181 -113.66974 0.048971031 30.645346
14684000000 0.045208108 123.424 0.82900566 -118.60738 0.82935143 -118.90462 0.046001736 32.294273
14688000000 0.049348108 114.95807 0.8281827 -123.81773 0.82875937 -124.11014 0.045159776 33.976669
14692000000 0.055433776 108.96953 0.82886565 -129.1003 0.82879406 -129.40038 0.042936604 40.819576
14696000000 0.059720319 102.48452 0.8283518 -134.32785 0.82746696 -134.5961 0.042583257 43.800369
14700000000 0.062356081 95.837143 0.82756984 -139.5089 0.82808012 -139.82214 0.042951468 48.711819
14704000000 0.066504441 88.433708 0.82678944 -144.73734 0.82778281 -145.00398 0.043830115 52.721764
14708000000 0.069351904 82.173927 0.82682973 -150.02074 0.82653421 -150.23141 0.046925794 57.692455
14712000000 0.072979465 75.995987 0.82601213 -155.21487 0.82657981 -155.43797 0.048482779 60.727432
14716000000 0.074820109 69.503769 0.82662147 -160.41882 0.82674146 -160.66237 0.051319931 63.282215
14720000000 0.076516472 63.685349 0.82607871 -165.68153 0.82634592 -165.83983 0.054962713 64.08004
14724000000 0.077138193 57.848507 0.82537925 -170.81772 0.82593513 -171.09552 0.05941274 65.878273
14728000000 0.078570485 51.446407 0.82630891 -175.99796 0.82582188 -176.37862 0.063110098 65.271767
14732000000 0.077331662 45.018562 0.82520837 178.78004 0.82562751 178.5007 0.066858046 64.487953
14736000000 0.077258244 39.251598 0.82493246 173.51204 0.82574075 173.26021 0.070436187 63.40102
14740000000 0.076394729 33.237267 0.8258695 168.37958 0.82575351 168.05881 0.073858835 62.784546
14744000000 0.074626297 26.604338 0.82508856 163.0985 0.82493591 162.83029 0.077044688 60.626144
14748000000 0.07260634 21.153049 0.82597458 157.92114 0.82607454 157.65201 0.081520289 57.766823
14752000000 0.069240928 15.568754 0.82586098 152.72957 0.82553589 152.46588 0.083469056 56.188568
14756000000 0.066990711 8.0482035 0.82615089 147.48167 0.82518107 147.21243 0.085788183 54.342171
14760000000 0.063087724 1.4119437 0.82571578 142.26718 0.82488155 141.9886 0.088093594 52.235188
14764000000 0.058845654 -4.7636981 0.82481891 137.10588 0.82463092 136.81561 0.090302274 49.432198
14768000000 0.055171572 -11.685328 0.82589394 131.8049 0.82612133 131.57146 0.09008532 46.887192
14772000000 0.049310263 -19.697557 0.82549417 126.60485 0.82501602 126.32495 0.090667188 44.20047
14776000000 0.043988369 -27.367687 0.82474118 121.3418 0.82517928 121.12078 0.090268396 42.678612
14780000000 0.039017439 -35.4818 0.82612163 116.13293 0.82575709 115.89433 0.090337209 39.599953
14784000000 0.033414319 -46.048744 0.82550192 110.91729 0.8254267 110.65643 0.090255357 37.763592
14788000000 0.028538885 -55.165352 0.82554048 105.756 0.82618272 105.41399 0.088782825 35.628864
14792000000 0.023092069 -69.232071 0.8251304 100.42374 0.82536238 100.24066 0.087759361 33.580986
14796000000 0.01819603 -85.982819 0.82597256 95.247208 0.82482129 95.023819 0.086756386 31.977026
